
T1C8C 000:300 SEGGER J-Link V4.98e Log File (0000ms, 0263ms total)
T1C8C 000:300 DLL Compiled: May  5 2015 11:00:52 (0000ms, 0263ms total)
T1C8C 000:300 Logging started @ 2016-07-31 14:49 (0000ms, 0263ms total)
T1C8C 000:300 JLINK_SetWarnOutHandler(...) (0000ms, 0263ms total)
T1C8C 000:300 JLINK_OpenEx(...)
Firmware: J-Link ARM-OB STM32 compiled Aug 22 2012 19:52:04
Hardware: V7.00
S/N: 20090928
Feature(s): RDI,FlashDL,FlashBP,JFlash,GDBFull  returns O.K. (0266ms, 0529ms total)
T1C8C 000:566 JLINK_SetErrorOutHandler(...) (0000ms, 0529ms total)
T1C8C 000:566 JLINK_ExecCommand("ProjectFile = "G:\vino_project\electronic_design\bycle\¼ÓËÙ¶ÈÍÓÂÝÒÇ¡ªMPU6050\bicycle\CLASS_@5\Project\RVMDK£¨uv4£©\JLinkSettings.ini"", ...)  returns 0x00 (0001ms, 0530ms total)
T1C8C 000:571 JLINK_ExecCommand("Device = STM32F103ZE", ...)Device "STM32F103ZE" selected.  returns 0x00 (0018ms, 0548ms total)
T1C8C 000:590 JLINK_ExecCommand("DisableConnectionTimeout", ...)  returns 0x01 (0000ms, 0548ms total)
T1C8C 000:590 JLINK_GetHardwareVersion()  returns 0x11170 (0000ms, 0548ms total)
T1C8C 000:590 JLINK_GetDLLVersion()  returns 49805 (0000ms, 0548ms total)
T1C8C 000:590 JLINK_GetFirmwareString(...) (0000ms, 0548ms total)
T1C8C 000:603 JLINK_GetDLLVersion()  returns 49805 (0000ms, 0548ms total)
T1C8C 000:603 JLINK_GetCompileDateTime() (0000ms, 0548ms total)
T1C8C 000:615 JLINK_GetFirmwareString(...) (0000ms, 0548ms total)
T1C8C 000:619 JLINK_GetHardwareVersion()  returns 0x11170 (0000ms, 0548ms total)
T1C8C 000:630 JLINK_TIF_Select(JLINKARM_TIF_SWD)  returns 0x00 (0001ms, 0549ms total)
T1C8C 000:631 JLINK_SetSpeed(5000) (0000ms, 0549ms total)
T1C8C 000:631 JLINK_GetId() >0x108 TIF>Found SWD-DP with ID 0x1BA01477 >0x0D TIF> >0x28 TIF> >0x0D TIF> >0x28 TIF> >0x0D TIF> >0x21 TIF> >0x0D TIF> >0x28 TIF> >0x0D TIF> >0x28 TIF> >0x0D TIF> >0x28 TIF> >0x0D TIF> >0x21 TIF> >0x0D TIF> >0x21 TIF> >0x0D TIF> >0x28 TIF> >0x0D TIF> >0x21 TIF> >0x0D TIF> >0x21 TIF> >0x108 TIF>Found SWD-DP with ID 0x1BA01477 >0x0D TIF> >0x21 TIF> >0x0D TIF> >0x28 TIF> >0x0D TIF> >0x28 TIF> >0x0D TIF> >0x21 TIF> >0x0D TIF> >0x28 TIF> >0x0D TIF> >0x21 TIF> >0x0D TIF> >0x21 TIF>
 >0x0D TIF> >0x21 TIF> >0x0D TIF> >0x21 TIF> >0x0D TIF> >0x28 TIF> >0x0D TIF> >0x28 TIF> >0x0D TIF> >0x21 TIF> >0x0D TIF> >0x28 TIF> >0x0D TIF> >0x28 TIF> >0x0D TIF> >0x28 TIF> >0x0D TIF> >0x21 TIF> >0x0D TIF> >0x21 TIF> >0x0D TIF> >0x28 TIF> >0x0D TIF> >0x21 TIF> >0x0D TIF> >0x21 TIF>Found Cortex-M3 r1p1, Little endian. -- CPU_WriteMem(4 bytes @ 0xE0002000) -- CPU_ReadMem(4 bytes @ 0xE000EDF0) -- CPU_ReadMem(4 bytes @ 0xE0002000)FPUnit: 6 code (BP) slots and 2 literal slots
 -- CPU_ReadMem(4 bytes @ 0xE000EDFC) -- CPU_ReadMem(4 bytes @ 0xE0001000) -- CPU_WriteMem(4 bytes @ 0xE0001000) -- CPU_ReadMem(4 bytes @ 0xE000ED88) -- CPU_WriteMem(4 bytes @ 0xE000ED88) -- CPU_ReadMem(4 bytes @ 0xE000ED88) -- CPU_WriteMem(4 bytes @ 0xE000ED88)CoreSight components:ROMTbl 0 @ E00FF000 -- CPU_ReadMem(16 bytes @ 0xE00FF000) -- CPU_ReadMem(16 bytes @ 0xE000EFF0) -- CPU_ReadMem(16 bytes @ 0xE000EFE0)ROMTbl 0 [0]: FFF0F000, CID: B105E00D, PID: 001BB000 SCS
 -- CPU_ReadMem(16 bytes @ 0xE0001FF0) -- CPU_ReadMem(16 bytes @ 0xE0001FE0)ROMTbl 0 [1]: FFF02000, CID: B105E00D, PID: 001BB002 DWT -- CPU_ReadMem(16 bytes @ 0xE0002FF0) -- CPU_ReadMem(16 bytes @ 0xE0002FE0)ROMTbl 0 [2]: FFF03000, CID: B105E00D, PID: 000BB003 FPB -- CPU_ReadMem(16 bytes @ 0xE0000FF0) -- CPU_ReadMem(16 bytes @ 0xE0000FE0)ROMTbl 0 [3]: FFF01000, CID: B105E00D, PID: 001BB001 ITM -- CPU_ReadMem(16 bytes @ 0xE00FF010) -- CPU_ReadMem(16 bytes @ 0xE0040FF0)
 -- CPU_ReadMem(16 bytes @ 0xE0040FE0)ROMTbl 0 [4]: FFF41000, CID: B105900D, PID: 001BB923 TPIU-Lite -- CPU_ReadMem(16 bytes @ 0xE0041FF0) -- CPU_ReadMem(16 bytes @ 0xE0041FE0)ROMTbl 0 [5]: FFF42000, CID: B105900D, PID: 101BB924 ETM-M3 >0x0D TIF> >0x21 TIF>  returns 0x1BA01477 (0065ms, 0614ms total)
T1C8C 000:696 JLINK_GetDLLVersion()  returns 49805 (0000ms, 0614ms total)
T1C8C 000:696 JLINK_CORE_GetFound()  returns 0x30000FF (0000ms, 0614ms total)
T1C8C 000:696 JLINK_GetDebugInfo(0x100) -- Value=0xE00FF003  returns 0x00 (0001ms, 0615ms total)
T1C8C 000:699 JLINK_ReadMem (0xE00FF000, 0x0020 Bytes, ...) -- CPU is running -- CPU_ReadMem(32 bytes @ 0xE00FF000) - Data: 03 F0 F0 FF 03 20 F0 FF 03 30 F0 FF 03 10 F0 FF ...  returns 0x00 (0000ms, 0615ms total)
T1C8C 000:699 JLINK_ReadMem (0xE000EFF0, 0x0010 Bytes, ...) -- CPU is running -- CPU_ReadMem(16 bytes @ 0xE000EFF0) - Data: 0D 00 00 00 E0 00 00 00 05 00 00 00 B1 00 00 00  returns 0x00 (0001ms, 0616ms total)
T1C8C 000:700 JLINK_ReadMem (0xE000EFD0, 0x0020 Bytes, ...) -- CPU is running -- CPU_ReadMem(32 bytes @ 0xE000EFD0) - Data: 04 00 00 00 00 00 00 00 00 00 00 00 00 00 00 00 ...  returns 0x00 (0001ms, 0617ms total)
T1C8C 000:701 JLINK_ReadMem (0xE0001FF0, 0x0010 Bytes, ...) -- CPU is running -- CPU_ReadMem(16 bytes @ 0xE0001FF0) - Data: 0D 00 00 00 E0 00 00 00 05 00 00 00 B1 00 00 00  returns 0x00 (0000ms, 0617ms total)
T1C8C 000:701 JLINK_ReadMem (0xE0001FD0, 0x0020 Bytes, ...) -- CPU is running -- CPU_ReadMem(32 bytes @ 0xE0001FD0) - Data: 04 00 00 00 00 00 00 00 00 00 00 00 00 00 00 00 ...  returns 0x00 (0001ms, 0618ms total)
T1C8C 000:702 JLINK_ReadMem (0xE0002FF0, 0x0010 Bytes, ...) -- CPU is running -- CPU_ReadMem(16 bytes @ 0xE0002FF0) - Data: 0D 00 00 00 E0 00 00 00 05 00 00 00 B1 00 00 00  returns 0x00 (0001ms, 0619ms total)
T1C8C 000:703 JLINK_ReadMem (0xE0002FD0, 0x0020 Bytes, ...) -- CPU is running -- CPU_ReadMem(32 bytes @ 0xE0002FD0) - Data: 04 00 00 00 00 00 00 00 00 00 00 00 00 00 00 00 ...  returns 0x00 (0000ms, 0619ms total)
T1C8C 000:703 JLINK_ReadMem (0xE0000FF0, 0x0010 Bytes, ...) -- CPU is running -- CPU_ReadMem(16 bytes @ 0xE0000FF0) - Data: 0D 00 00 00 E0 00 00 00 05 00 00 00 B1 00 00 00  returns 0x00 (0001ms, 0620ms total)
T1C8C 000:704 JLINK_ReadMem (0xE0000FD0, 0x0020 Bytes, ...) -- CPU is running -- CPU_ReadMem(32 bytes @ 0xE0000FD0) - Data: 04 00 00 00 00 00 00 00 00 00 00 00 00 00 00 00 ...  returns 0x00 (0001ms, 0621ms total)
T1C8C 000:705 JLINK_ReadMem (0xE0040FF0, 0x0010 Bytes, ...) -- CPU is running -- CPU_ReadMem(16 bytes @ 0xE0040FF0) - Data: 0D 00 00 00 90 00 00 00 05 00 00 00 B1 00 00 00  returns 0x00 (0001ms, 0622ms total)
T1C8C 000:706 JLINK_ReadMem (0xE0040FD0, 0x0020 Bytes, ...) -- CPU is running -- CPU_ReadMem(32 bytes @ 0xE0040FD0) - Data: 04 00 00 00 00 00 00 00 00 00 00 00 00 00 00 00 ...  returns 0x00 (0000ms, 0622ms total)
T1C8C 000:706 JLINK_ReadMem (0xE0041FF0, 0x0010 Bytes, ...) -- CPU is running -- CPU_ReadMem(16 bytes @ 0xE0041FF0) - Data: 0D 00 00 00 90 00 00 00 05 00 00 00 B1 00 00 00  returns 0x00 (0001ms, 0623ms total)
T1C8C 000:707 JLINK_ReadMem (0xE0041FD0, 0x0020 Bytes, ...) -- CPU is running -- CPU_ReadMem(32 bytes @ 0xE0041FD0) - Data: 04 00 00 00 00 00 00 00 00 00 00 00 00 00 00 00 ...  returns 0x00 (0000ms, 0623ms total)
T1C8C 000:707 JLINK_ReadMemU32(0xE000ED00, 0x0001 Items, ...) -- CPU is running -- CPU_ReadMem(4 bytes @ 0xE000ED00) - Data: 31 C2 1F 41  returns 0x01 (0001ms, 0624ms total)
T1C8C 000:708 JLINK_SetResetType(JLINKARM_RESET_TYPE_NORMAL)  returns JLINKARM_RESET_TYPE_NORMAL (0000ms, 0624ms total)
T1C8C 000:708 JLINK_Reset() -- CPU is running -- CPU_WriteMem(4 bytes @ 0xE000EDF0) -- CPU is running -- CPU_WriteMem(4 bytes @ 0xE000EDFC) >0x35 TIF> -- CPU is running -- CPU_WriteMem(4 bytes @ 0xE000ED0C) -- CPU is running -- CPU_ReadMem(4 bytes @ 0xE000EDF0) -- CPU is running -- CPU_ReadMem(4 bytes @ 0xE000EDF0) -- CPU is running -- CPU_WriteMem(4 bytes @ 0xE000EDF0) -- CPU is running -- CPU_WriteMem(4 bytes @ 0xE000EDFC) -- CPU is running -- CPU_ReadMem(4 bytes @ 0xE000EDF0)
 -- CPU_WriteMem(4 bytes @ 0xE0002000) -- CPU_ReadMem(4 bytes @ 0xE000EDFC) -- CPU_ReadMem(4 bytes @ 0xE0001000) (0017ms, 0641ms total)
T1C8C 000:725 JLINK_Halt()  returns 0x00 (0000ms, 0641ms total)
T1C8C 000:725 JLINK_IsHalted()  returns TRUE (0000ms, 0641ms total)
T1C8C 000:725 JLINK_ReadMemU32(0xE000EDF0, 0x0001 Items, ...) -- CPU_ReadMem(4 bytes @ 0xE000EDF0) - Data: 03 00 03 00  returns 0x01 (0001ms, 0642ms total)
T1C8C 000:726 JLINK_WriteU32(0xE000EDF0, 0xA05F0003) -- CPU_WriteMem(4 bytes @ 0xE000EDF0)  returns 0x00 (0000ms, 0642ms total)
T1C8C 000:726 JLINK_WriteU32(0xE000EDFC, 0x01000000) -- CPU_WriteMem(4 bytes @ 0xE000EDFC)  returns 0x00 (0001ms, 0643ms total)
T1C8C 000:737 JLINK_GetHWStatus(...)  returns 0x00 (0000ms, 0643ms total)
T1C8C 000:743 JLINK_GetNumBPUnits(Type = 0xFFFFFF00)  returns 0x06 (0000ms, 0643ms total)
T1C8C 000:743 JLINK_GetNumBPUnits(Type = 0xF0)  returns 0x2000 (0000ms, 0643ms total)
T1C8C 000:743 JLINK_GetNumWPUnits()  returns 0x04 (0000ms, 0643ms total)
T1C8C 000:749 JLINK_GetSpeed()  returns 0xFA0 (0001ms, 0644ms total)
T1C8C 000:753 JLINK_ReadMemU32(0xE000E004, 0x0001 Items, ...) -- CPU_ReadMem(4 bytes @ 0xE000E004) - Data: 01 00 00 00  returns 0x01 (0001ms, 0645ms total)
T1C8C 000:754 JLINK_ReadMemU32(0xE000E004, 0x0001 Items, ...) -- CPU_ReadMem(4 bytes @ 0xE000E004) - Data: 01 00 00 00  returns 0x01 (0001ms, 0646ms total)
T1C8C 000:755 JLINK_WriteMem(0xE0001000, 0x001C Bytes, ...) - Data: 01 00 00 00 00 00 00 00 00 00 00 00 00 00 00 00 ... -- CPU_WriteMem(28 bytes @ 0xE0001000)  returns 0x1C (0001ms, 0647ms total)
T1C8C 000:756 JLINK_ReadMem (0xE0001000, 0x001C Bytes, ...) -- CPU_ReadMem(28 bytes @ 0xE0001000) - Data: 01 00 00 40 00 00 00 00 00 00 00 00 00 00 00 00 ...  returns 0x00 (0001ms, 0648ms total)
T1C8C 000:757 JLINK_Halt()  returns 0x00 (0000ms, 0648ms total)
T1C8C 000:757 JLINK_IsHalted()  returns TRUE (0000ms, 0648ms total)
T1C8C 000:760 JLINK_WriteMem(0x20000000, 0x0164 Bytes, ...) - Data: 00 BE 0A E0 0D 78 2D 06 68 40 08 24 40 00 00 D3 ... -- CPU_WriteMem(356 bytes @ 0x20000000)  returns 0x164 (0006ms, 0654ms total)
T1C8C 000:766 JLINK_WriteReg(R0, 0x08000000)  returns 0x00 (0000ms, 0654ms total)
T1C8C 000:766 JLINK_WriteReg(R1, 0x00B71B00)  returns 0x00 (0000ms, 0654ms total)
T1C8C 000:766 JLINK_WriteReg(R2, 0x00000001)  returns 0x00 (0000ms, 0654ms total)
T1C8C 000:766 JLINK_WriteReg(R3, 0x00000000)  returns 0x00 (0000ms, 0654ms total)
T1C8C 000:766 JLINK_WriteReg(R4, 0x00000000)  returns 0x00 (0000ms, 0654ms total)
T1C8C 000:766 JLINK_WriteReg(R5, 0x00000000)  returns 0x00 (0000ms, 0654ms total)
T1C8C 000:766 JLINK_WriteReg(R6, 0x00000000)  returns 0x00 (0000ms, 0654ms total)
T1C8C 000:766 JLINK_WriteReg(R7, 0x00000000)  returns 0x00 (0000ms, 0654ms total)
T1C8C 000:766 JLINK_WriteReg(R8, 0x00000000)  returns 0x00 (0000ms, 0654ms total)
T1C8C 000:766 JLINK_WriteReg(R9, 0x20000160)  returns 0x00 (0000ms, 0654ms total)
T1C8C 000:766 JLINK_WriteReg(R10, 0x00000000)  returns 0x00 (0000ms, 0654ms total)
T1C8C 000:766 JLINK_WriteReg(R11, 0x00000000)  returns 0x00 (0000ms, 0654ms total)
T1C8C 000:766 JLINK_WriteReg(R12, 0x00000000)  returns 0x00 (0000ms, 0654ms total)
T1C8C 000:766 JLINK_WriteReg(R13 (SP), 0x20000800)  returns 0x00 (0000ms, 0654ms total)
T1C8C 000:766 JLINK_WriteReg(R14, 0x20000001)  returns 0x00 (0000ms, 0654ms total)
T1C8C 000:766 JLINK_WriteReg(R15 (PC), 0x20000038)  returns 0x00 (0000ms, 0654ms total)
T1C8C 000:766 JLINK_WriteReg(XPSR, 0x01000000)  returns 0x00 (0000ms, 0654ms total)
T1C8C 000:766 JLINK_WriteReg(MSP, 0x20000800)  returns 0x00 (0000ms, 0654ms total)
T1C8C 000:766 JLINK_WriteReg(PSP, 0x20000800)  returns 0x00 (0000ms, 0654ms total)
T1C8C 000:766 JLINK_WriteReg(CFBP, 0x00000000)  returns 0x00 (0000ms, 0654ms total)
T1C8C 000:766 JLINK_SetBPEx(Addr = 0x20000000, Type = 0xFFFFFFF2) -- CPU_ReadMem(2 bytes @ 0x20000000)  returns 0x00000001 (0001ms, 0655ms total)
T1C8C 000:767 JLINK_Go() -- CPU_WriteMem(2 bytes @ 0x20000000) -- CPU_ReadMem(4 bytes @ 0xE0001000) -- CPU_WriteMem(4 bytes @ 0xE0002008) -- CPU_WriteMem(4 bytes @ 0xE000200C) -- CPU_WriteMem(4 bytes @ 0xE0002010) -- CPU_WriteMem(4 bytes @ 0xE0002014) -- CPU_WriteMem(4 bytes @ 0xE0002018) -- CPU_WriteMem(4 bytes @ 0xE000201C) -- CPU_WriteMem(4 bytes @ 0xE0001004) (0006ms, 0661ms total)
T1C8C 000:773 JLINK_IsHalted() -- CPU_ReadMem(2 bytes @ 0x20000000)  returns TRUE (0003ms, 0664ms total)
T1C8C 000:776 JLINK_ReadReg(R15 (PC))  returns 0x20000000 (0000ms, 0661ms total)
T1C8C 000:776 JLINK_ClrBPEx(BPHandle = 0x00000001)  returns 0x00 (0000ms, 0661ms total)
T1C8C 000:776 JLINK_ReadReg(R0)  returns 0x00000000 (0000ms, 0661ms total)
T1C8C 000:777 JLINK_WriteReg(R0, 0x08000000)  returns 0x00 (0000ms, 0661ms total)
T1C8C 000:777 JLINK_WriteReg(R1, 0x00B71B00)  returns 0x00 (0000ms, 0661ms total)
T1C8C 000:777 JLINK_WriteReg(R2, 0x00000001)  returns 0x00 (0000ms, 0661ms total)
T1C8C 000:777 JLINK_WriteReg(R3, 0x00000000)  returns 0x00 (0000ms, 0661ms total)
T1C8C 000:777 JLINK_WriteReg(R4, 0x00000000)  returns 0x00 (0000ms, 0661ms total)
T1C8C 000:777 JLINK_WriteReg(R5, 0x00000000)  returns 0x00 (0000ms, 0661ms total)
T1C8C 000:777 JLINK_WriteReg(R6, 0x00000000)  returns 0x00 (0000ms, 0661ms total)
T1C8C 000:777 JLINK_WriteReg(R7, 0x00000000)  returns 0x00 (0000ms, 0661ms total)
T1C8C 000:777 JLINK_WriteReg(R8, 0x00000000)  returns 0x00 (0000ms, 0661ms total)
T1C8C 000:777 JLINK_WriteReg(R9, 0x20000160)  returns 0x00 (0000ms, 0661ms total)
T1C8C 000:777 JLINK_WriteReg(R10, 0x00000000)  returns 0x00 (0000ms, 0661ms total)
T1C8C 000:777 JLINK_WriteReg(R11, 0x00000000)  returns 0x00 (0000ms, 0661ms total)
T1C8C 000:777 JLINK_WriteReg(R12, 0x00000000)  returns 0x00 (0000ms, 0661ms total)
T1C8C 000:777 JLINK_WriteReg(R13 (SP), 0x20000800)  returns 0x00 (0000ms, 0661ms total)
T1C8C 000:777 JLINK_WriteReg(R14, 0x20000001)  returns 0x00 (0000ms, 0661ms total)
T1C8C 000:777 JLINK_WriteReg(R15 (PC), 0x2000007C)  returns 0x00 (0000ms, 0661ms total)
T1C8C 000:777 JLINK_WriteReg(XPSR, 0x01000000)  returns 0x00 (0000ms, 0661ms total)
T1C8C 000:777 JLINK_WriteReg(MSP, 0x20000800)  returns 0x00 (0000ms, 0661ms total)
T1C8C 000:777 JLINK_WriteReg(PSP, 0x20000800)  returns 0x00 (0000ms, 0661ms total)
T1C8C 000:777 JLINK_WriteReg(CFBP, 0x00000000)  returns 0x00 (0000ms, 0661ms total)
T1C8C 000:777 JLINK_SetBPEx(Addr = 0x20000000, Type = 0xFFFFFFF2)  returns 0x00000002 (0000ms, 0661ms total)
T1C8C 000:777 JLINK_Go() -- CPU_ReadMem(4 bytes @ 0xE0001000) (0002ms, 0663ms total)
T1C8C 000:779 JLINK_IsHalted()  returns FALSE (0001ms, 0664ms total)
T1C8C 000:938 JLINK_IsHalted() -- CPU_ReadMem(2 bytes @ 0x20000000)  returns TRUE (0004ms, 0667ms total)
T1C8C 000:942 JLINK_ReadReg(R15 (PC))  returns 0x20000000 (0000ms, 0663ms total)
T1C8C 000:942 JLINK_ClrBPEx(BPHandle = 0x00000002)  returns 0x00 (0000ms, 0663ms total)
T1C8C 000:942 JLINK_ReadReg(R0)  returns 0x00000000 (0000ms, 0663ms total)
T1C8C 000:994 JLINK_WriteReg(R0, 0x00000001)  returns 0x00 (0000ms, 0663ms total)
T1C8C 000:994 JLINK_WriteReg(R1, 0x00B71B00)  returns 0x00 (0000ms, 0663ms total)
T1C8C 000:994 JLINK_WriteReg(R2, 0x00000001)  returns 0x00 (0000ms, 0663ms total)
T1C8C 000:994 JLINK_WriteReg(R3, 0x00000000)  returns 0x00 (0000ms, 0663ms total)
T1C8C 000:994 JLINK_WriteReg(R4, 0x00000000)  returns 0x00 (0000ms, 0663ms total)
T1C8C 000:994 JLINK_WriteReg(R5, 0x00000000)  returns 0x00 (0000ms, 0663ms total)
T1C8C 000:994 JLINK_WriteReg(R6, 0x00000000)  returns 0x00 (0000ms, 0663ms total)
T1C8C 000:994 JLINK_WriteReg(R7, 0x00000000)  returns 0x00 (0000ms, 0663ms total)
T1C8C 000:994 JLINK_WriteReg(R8, 0x00000000)  returns 0x00 (0000ms, 0663ms total)
T1C8C 000:994 JLINK_WriteReg(R9, 0x20000160)  returns 0x00 (0000ms, 0663ms total)
T1C8C 000:994 JLINK_WriteReg(R10, 0x00000000)  returns 0x00 (0000ms, 0663ms total)
T1C8C 000:994 JLINK_WriteReg(R11, 0x00000000)  returns 0x00 (0000ms, 0663ms total)
T1C8C 000:994 JLINK_WriteReg(R12, 0x00000000)  returns 0x00 (0000ms, 0663ms total)
T1C8C 000:994 JLINK_WriteReg(R13 (SP), 0x20000800)  returns 0x00 (0000ms, 0663ms total)
T1C8C 000:994 JLINK_WriteReg(R14, 0x20000001)  returns 0x00 (0000ms, 0663ms total)
T1C8C 000:994 JLINK_WriteReg(R15 (PC), 0x2000006A)  returns 0x00 (0000ms, 0663ms total)
T1C8C 000:994 JLINK_WriteReg(XPSR, 0x01000000)  returns 0x00 (0000ms, 0663ms total)
T1C8C 000:994 JLINK_WriteReg(MSP, 0x20000800)  returns 0x00 (0000ms, 0663ms total)
T1C8C 000:994 JLINK_WriteReg(PSP, 0x20000800)  returns 0x00 (0000ms, 0663ms total)
T1C8C 000:994 JLINK_WriteReg(CFBP, 0x00000000)  returns 0x00 (0000ms, 0663ms total)
T1C8C 000:994 JLINK_SetBPEx(Addr = 0x20000000, Type = 0xFFFFFFF2)  returns 0x00000003 (0000ms, 0663ms total)
T1C8C 000:994 JLINK_Go() -- CPU_ReadMem(4 bytes @ 0xE0001000) (0002ms, 0665ms total)
T1C8C 000:996 JLINK_IsHalted() -- CPU_ReadMem(2 bytes @ 0x20000000)  returns TRUE (0004ms, 0669ms total)
T1C8C 001:000 JLINK_ReadReg(R15 (PC))  returns 0x20000000 (0000ms, 0665ms total)
T1C8C 001:000 JLINK_ClrBPEx(BPHandle = 0x00000003)  returns 0x00 (0000ms, 0665ms total)
T1C8C 001:000 JLINK_ReadReg(R0)  returns 0x00000000 (0000ms, 0665ms total)
T1C8C 001:007 JLINK_WriteMem(0x20000000, 0x0164 Bytes, ...) - Data: 00 BE 0A E0 0D 78 2D 06 68 40 08 24 40 00 00 D3 ... -- CPU_WriteMem(356 bytes @ 0x20000000)  returns 0x164 (0005ms, 0670ms total)
T1C8C 001:012 JLINK_WriteReg(R0, 0x08000000)  returns 0x00 (0000ms, 0670ms total)
T1C8C 001:012 JLINK_WriteReg(R1, 0x00B71B00)  returns 0x00 (0000ms, 0670ms total)
T1C8C 001:012 JLINK_WriteReg(R2, 0x00000002)  returns 0x00 (0000ms, 0670ms total)
T1C8C 001:012 JLINK_WriteReg(R3, 0x00000000)  returns 0x00 (0000ms, 0670ms total)
T1C8C 001:012 JLINK_WriteReg(R4, 0x00000000)  returns 0x00 (0000ms, 0670ms total)
T1C8C 001:012 JLINK_WriteReg(R5, 0x00000000)  returns 0x00 (0000ms, 0670ms total)
T1C8C 001:012 JLINK_WriteReg(R6, 0x00000000)  returns 0x00 (0000ms, 0670ms total)
T1C8C 001:012 JLINK_WriteReg(R7, 0x00000000)  returns 0x00 (0000ms, 0670ms total)
T1C8C 001:012 JLINK_WriteReg(R8, 0x00000000)  returns 0x00 (0000ms, 0670ms total)
T1C8C 001:012 JLINK_WriteReg(R9, 0x20000160)  returns 0x00 (0000ms, 0670ms total)
T1C8C 001:012 JLINK_WriteReg(R10, 0x00000000)  returns 0x00 (0000ms, 0670ms total)
T1C8C 001:012 JLINK_WriteReg(R11, 0x00000000)  returns 0x00 (0001ms, 0671ms total)
T1C8C 001:013 JLINK_WriteReg(R12, 0x00000000)  returns 0x00 (0000ms, 0671ms total)
T1C8C 001:013 JLINK_WriteReg(R13 (SP), 0x20000800)  returns 0x00 (0000ms, 0671ms total)
T1C8C 001:013 JLINK_WriteReg(R14, 0x20000001)  returns 0x00 (0000ms, 0671ms total)
T1C8C 001:013 JLINK_WriteReg(R15 (PC), 0x20000038)  returns 0x00 (0000ms, 0671ms total)
T1C8C 001:013 JLINK_WriteReg(XPSR, 0x01000000)  returns 0x00 (0000ms, 0671ms total)
T1C8C 001:013 JLINK_WriteReg(MSP, 0x20000800)  returns 0x00 (0000ms, 0671ms total)
T1C8C 001:013 JLINK_WriteReg(PSP, 0x20000800)  returns 0x00 (0000ms, 0671ms total)
T1C8C 001:013 JLINK_WriteReg(CFBP, 0x00000000)  returns 0x00 (0000ms, 0671ms total)
T1C8C 001:013 JLINK_SetBPEx(Addr = 0x20000000, Type = 0xFFFFFFF2) -- CPU_ReadMem(2 bytes @ 0x20000000)  returns 0x00000004 (0000ms, 0671ms total)
T1C8C 001:013 JLINK_Go() -- CPU_WriteMem(2 bytes @ 0x20000000) -- CPU_ReadMem(4 bytes @ 0xE0001000) (0003ms, 0674ms total)
T1C8C 001:016 JLINK_IsHalted() -- CPU_ReadMem(2 bytes @ 0x20000000)  returns TRUE (0004ms, 0678ms total)
T1C8C 001:020 JLINK_ReadReg(R15 (PC))  returns 0x20000000 (0000ms, 0674ms total)
T1C8C 001:020 JLINK_ClrBPEx(BPHandle = 0x00000004)  returns 0x00 (0000ms, 0674ms total)
T1C8C 001:020 JLINK_ReadReg(R0)  returns 0x00000000 (0000ms, 0674ms total)
T1C8C 001:020 JLINK_WriteMem(0x20000164, 0x0400 Bytes, ...) - Data: 00 05 00 20 45 01 00 08 45 28 00 08 47 28 00 08 ... -- CPU_WriteMem(1024 bytes @ 0x20000164)  returns 0x400 (0012ms, 0686ms total)
T1C8C 001:032 JLINK_WriteReg(R0, 0x08000000)  returns 0x00 (0000ms, 0686ms total)
T1C8C 001:032 JLINK_WriteReg(R1, 0x00000400)  returns 0x00 (0000ms, 0686ms total)
T1C8C 001:032 JLINK_WriteReg(R2, 0x20000164)  returns 0x00 (0000ms, 0686ms total)
T1C8C 001:032 JLINK_WriteReg(R3, 0x00000000)  returns 0x00 (0000ms, 0686ms total)
T1C8C 001:032 JLINK_WriteReg(R4, 0x00000000)  returns 0x00 (0000ms, 0686ms total)
T1C8C 001:032 JLINK_WriteReg(R5, 0x00000000)  returns 0x00 (0000ms, 0686ms total)
T1C8C 001:032 JLINK_WriteReg(R6, 0x00000000)  returns 0x00 (0000ms, 0686ms total)
T1C8C 001:032 JLINK_WriteReg(R7, 0x00000000)  returns 0x00 (0000ms, 0686ms total)
T1C8C 001:032 JLINK_WriteReg(R8, 0x00000000)  returns 0x00 (0001ms, 0687ms total)
T1C8C 001:033 JLINK_WriteReg(R9, 0x20000160)  returns 0x00 (0000ms, 0687ms total)
T1C8C 001:033 JLINK_WriteReg(R10, 0x00000000)  returns 0x00 (0000ms, 0687ms total)
T1C8C 001:033 JLINK_WriteReg(R11, 0x00000000)  returns 0x00 (0000ms, 0687ms total)
T1C8C 001:033 JLINK_WriteReg(R12, 0x00000000)  returns 0x00 (0000ms, 0687ms total)
T1C8C 001:033 JLINK_WriteReg(R13 (SP), 0x20000800)  returns 0x00 (0000ms, 0687ms total)
T1C8C 001:033 JLINK_WriteReg(R14, 0x20000001)  returns 0x00 (0000ms, 0687ms total)
T1C8C 001:033 JLINK_WriteReg(R15 (PC), 0x200000F4)  returns 0x00 (0000ms, 0687ms total)
T1C8C 001:033 JLINK_WriteReg(XPSR, 0x01000000)  returns 0x00 (0000ms, 0687ms total)
T1C8C 001:033 JLINK_WriteReg(MSP, 0x20000800)  returns 0x00 (0000ms, 0687ms total)
T1C8C 001:033 JLINK_WriteReg(PSP, 0x20000800)  returns 0x00 (0000ms, 0687ms total)
T1C8C 001:033 JLINK_WriteReg(CFBP, 0x00000000)  returns 0x00 (0000ms, 0687ms total)
T1C8C 001:033 JLINK_SetBPEx(Addr = 0x20000000, Type = 0xFFFFFFF2)  returns 0x00000005 (0000ms, 0687ms total)
T1C8C 001:033 JLINK_Go() -- CPU_ReadMem(4 bytes @ 0xE0001000) (0002ms, 0689ms total)
T1C8C 001:035 JLINK_IsHalted()  returns FALSE (0001ms, 0690ms total)
T1C8C 001:072 JLINK_IsHalted() -- CPU_ReadMem(2 bytes @ 0x20000000)  returns TRUE (0004ms, 0693ms total)
T1C8C 001:076 JLINK_ReadReg(R15 (PC))  returns 0x20000000 (0000ms, 0689ms total)
T1C8C 001:076 JLINK_ClrBPEx(BPHandle = 0x00000005)  returns 0x00 (0000ms, 0689ms total)
T1C8C 001:076 JLINK_ReadReg(R0)  returns 0x00000000 (0000ms, 0689ms total)
T1C8C 001:076 JLINK_WriteMem(0x20000164, 0x0400 Bytes, ...) - Data: 09 69 21 F0 04 01 4F F0 E0 22 11 61 70 47 00 00 ... -- CPU_WriteMem(1024 bytes @ 0x20000164)  returns 0x400 (0013ms, 0702ms total)
T1C8C 001:089 JLINK_WriteReg(R0, 0x08000400)  returns 0x00 (0000ms, 0702ms total)
T1C8C 001:089 JLINK_WriteReg(R1, 0x00000400)  returns 0x00 (0000ms, 0702ms total)
T1C8C 001:089 JLINK_WriteReg(R2, 0x20000164)  returns 0x00 (0000ms, 0702ms total)
T1C8C 001:089 JLINK_WriteReg(R3, 0x00000000)  returns 0x00 (0000ms, 0702ms total)
T1C8C 001:089 JLINK_WriteReg(R4, 0x00000000)  returns 0x00 (0000ms, 0702ms total)
T1C8C 001:089 JLINK_WriteReg(R5, 0x00000000)  returns 0x00 (0000ms, 0702ms total)
T1C8C 001:089 JLINK_WriteReg(R6, 0x00000000)  returns 0x00 (0000ms, 0702ms total)
T1C8C 001:089 JLINK_WriteReg(R7, 0x00000000)  returns 0x00 (0000ms, 0702ms total)
T1C8C 001:089 JLINK_WriteReg(R8, 0x00000000)  returns 0x00 (0000ms, 0702ms total)
T1C8C 001:089 JLINK_WriteReg(R9, 0x20000160)  returns 0x00 (0000ms, 0702ms total)
T1C8C 001:089 JLINK_WriteReg(R10, 0x00000000)  returns 0x00 (0000ms, 0702ms total)
T1C8C 001:089 JLINK_WriteReg(R11, 0x00000000)  returns 0x00 (0000ms, 0702ms total)
T1C8C 001:089 JLINK_WriteReg(R12, 0x00000000)  returns 0x00 (0000ms, 0702ms total)
T1C8C 001:089 JLINK_WriteReg(R13 (SP), 0x20000800)  returns 0x00 (0000ms, 0702ms total)
T1C8C 001:089 JLINK_WriteReg(R14, 0x20000001)  returns 0x00 (0000ms, 0702ms total)
T1C8C 001:089 JLINK_WriteReg(R15 (PC), 0x200000F4)  returns 0x00 (0000ms, 0702ms total)
T1C8C 001:089 JLINK_WriteReg(XPSR, 0x01000000)  returns 0x00 (0000ms, 0702ms total)
T1C8C 001:089 JLINK_WriteReg(MSP, 0x20000800)  returns 0x00 (0000ms, 0702ms total)
T1C8C 001:089 JLINK_WriteReg(PSP, 0x20000800)  returns 0x00 (0000ms, 0702ms total)
T1C8C 001:089 JLINK_WriteReg(CFBP, 0x00000000)  returns 0x00 (0000ms, 0702ms total)
T1C8C 001:089 JLINK_SetBPEx(Addr = 0x20000000, Type = 0xFFFFFFF2)  returns 0x00000006 (0000ms, 0702ms total)
T1C8C 001:089 JLINK_Go() -- CPU_ReadMem(4 bytes @ 0xE0001000) (0002ms, 0704ms total)
T1C8C 001:091 JLINK_IsHalted()  returns FALSE (0001ms, 0705ms total)
T1C8C 001:095 JLINK_IsHalted()  returns FALSE (0000ms, 0704ms total)
T1C8C 001:097 JLINK_IsHalted()  returns FALSE (0000ms, 0704ms total)
T1C8C 001:098 JLINK_IsHalted()  returns FALSE (0001ms, 0705ms total)
T1C8C 001:100 JLINK_IsHalted()  returns FALSE (0000ms, 0704ms total)
T1C8C 001:102 JLINK_IsHalted()  returns FALSE (0001ms, 0705ms total)
T1C8C 001:104 JLINK_IsHalted()  returns FALSE (0000ms, 0704ms total)
T1C8C 001:106 JLINK_IsHalted()  returns FALSE (0000ms, 0704ms total)
T1C8C 001:107 JLINK_IsHalted()  returns FALSE (0000ms, 0704ms total)
T1C8C 001:111 JLINK_IsHalted()  returns FALSE (0000ms, 0704ms total)
T1C8C 001:113 JLINK_IsHalted()  returns FALSE (0000ms, 0704ms total)
T1C8C 001:114 JLINK_IsHalted()  returns FALSE (0000ms, 0704ms total)
T1C8C 001:116 JLINK_IsHalted()  returns FALSE (0000ms, 0704ms total)
T1C8C 001:117 JLINK_IsHalted()  returns FALSE (0000ms, 0704ms total)
T1C8C 001:119 JLINK_IsHalted()  returns FALSE (0000ms, 0704ms total)
T1C8C 001:120 JLINK_IsHalted()  returns FALSE (0000ms, 0704ms total)
T1C8C 001:122 JLINK_IsHalted() -- CPU_ReadMem(2 bytes @ 0x20000000)  returns TRUE (0003ms, 0707ms total)
T1C8C 001:125 JLINK_ReadReg(R15 (PC))  returns 0x20000000 (0000ms, 0704ms total)
T1C8C 001:125 JLINK_ClrBPEx(BPHandle = 0x00000006)  returns 0x00 (0000ms, 0704ms total)
T1C8C 001:125 JLINK_ReadReg(R0)  returns 0x00000000 (0000ms, 0704ms total)
T1C8C 001:126 JLINK_WriteMem(0x20000164, 0x0400 Bytes, ...) - Data: 04 49 08 31 09 68 21 F4 00 01 02 4A 08 32 11 60 ... -- CPU_WriteMem(1024 bytes @ 0x20000164)  returns 0x400 (0013ms, 0717ms total)
T1C8C 001:139 JLINK_WriteReg(R0, 0x08000800)  returns 0x00 (0000ms, 0717ms total)
T1C8C 001:139 JLINK_WriteReg(R1, 0x00000400)  returns 0x00 (0000ms, 0717ms total)
T1C8C 001:139 JLINK_WriteReg(R2, 0x20000164)  returns 0x00 (0000ms, 0717ms total)
T1C8C 001:139 JLINK_WriteReg(R3, 0x00000000)  returns 0x00 (0000ms, 0717ms total)
T1C8C 001:139 JLINK_WriteReg(R4, 0x00000000)  returns 0x00 (0000ms, 0717ms total)
T1C8C 001:139 JLINK_WriteReg(R5, 0x00000000)  returns 0x00 (0000ms, 0717ms total)
T1C8C 001:139 JLINK_WriteReg(R6, 0x00000000)  returns 0x00 (0000ms, 0717ms total)
T1C8C 001:139 JLINK_WriteReg(R7, 0x00000000)  returns 0x00 (0000ms, 0717ms total)
T1C8C 001:139 JLINK_WriteReg(R8, 0x00000000)  returns 0x00 (0000ms, 0717ms total)
T1C8C 001:139 JLINK_WriteReg(R9, 0x20000160)  returns 0x00 (0000ms, 0717ms total)
T1C8C 001:139 JLINK_WriteReg(R10, 0x00000000)  returns 0x00 (0000ms, 0717ms total)
T1C8C 001:139 JLINK_WriteReg(R11, 0x00000000)  returns 0x00 (0000ms, 0717ms total)
T1C8C 001:139 JLINK_WriteReg(R12, 0x00000000)  returns 0x00 (0000ms, 0717ms total)
T1C8C 001:139 JLINK_WriteReg(R13 (SP), 0x20000800)  returns 0x00 (0000ms, 0717ms total)
T1C8C 001:139 JLINK_WriteReg(R14, 0x20000001)  returns 0x00 (0000ms, 0717ms total)
T1C8C 001:139 JLINK_WriteReg(R15 (PC), 0x200000F4)  returns 0x00 (0000ms, 0717ms total)
T1C8C 001:139 JLINK_WriteReg(XPSR, 0x01000000)  returns 0x00 (0000ms, 0717ms total)
T1C8C 001:139 JLINK_WriteReg(MSP, 0x20000800)  returns 0x00 (0000ms, 0717ms total)
T1C8C 001:139 JLINK_WriteReg(PSP, 0x20000800)  returns 0x00 (0000ms, 0717ms total)
T1C8C 001:139 JLINK_WriteReg(CFBP, 0x00000000)  returns 0x00 (0000ms, 0717ms total)
T1C8C 001:139 JLINK_SetBPEx(Addr = 0x20000000, Type = 0xFFFFFFF2)  returns 0x00000007 (0000ms, 0717ms total)
T1C8C 001:139 JLINK_Go() -- CPU_ReadMem(4 bytes @ 0xE0001000) (0002ms, 0719ms total)
T1C8C 001:141 JLINK_IsHalted()  returns FALSE (0001ms, 0720ms total)
T1C8C 001:167 JLINK_IsHalted()  returns FALSE (0001ms, 0720ms total)
T1C8C 001:169 JLINK_IsHalted()  returns FALSE (0000ms, 0719ms total)
T1C8C 001:171 JLINK_IsHalted()  returns FALSE (0001ms, 0720ms total)
T1C8C 001:173 JLINK_IsHalted() -- CPU_ReadMem(2 bytes @ 0x20000000)  returns TRUE (0005ms, 0724ms total)
T1C8C 001:178 JLINK_ReadReg(R15 (PC))  returns 0x20000000 (0000ms, 0719ms total)
T1C8C 001:178 JLINK_ClrBPEx(BPHandle = 0x00000007)  returns 0x00 (0000ms, 0719ms total)
T1C8C 001:178 JLINK_ReadReg(R0)  returns 0x00000000 (0000ms, 0719ms total)
T1C8C 001:178 JLINK_WriteMem(0x20000164, 0x0400 Bytes, ...) - Data: 40 68 20 F4 FE 00 48 60 4F F4 1F 00 88 60 70 47 ... -- CPU_WriteMem(1024 bytes @ 0x20000164)  returns 0x400 (0013ms, 0732ms total)
T1C8C 001:191 JLINK_WriteReg(R0, 0x08000C00)  returns 0x00 (0000ms, 0732ms total)
T1C8C 001:191 JLINK_WriteReg(R1, 0x00000400)  returns 0x00 (0000ms, 0732ms total)
T1C8C 001:191 JLINK_WriteReg(R2, 0x20000164)  returns 0x00 (0000ms, 0732ms total)
T1C8C 001:191 JLINK_WriteReg(R3, 0x00000000)  returns 0x00 (0000ms, 0732ms total)
T1C8C 001:191 JLINK_WriteReg(R4, 0x00000000)  returns 0x00 (0000ms, 0732ms total)
T1C8C 001:191 JLINK_WriteReg(R5, 0x00000000)  returns 0x00 (0000ms, 0732ms total)
T1C8C 001:191 JLINK_WriteReg(R6, 0x00000000)  returns 0x00 (0000ms, 0732ms total)
T1C8C 001:191 JLINK_WriteReg(R7, 0x00000000)  returns 0x00 (0000ms, 0732ms total)
T1C8C 001:191 JLINK_WriteReg(R8, 0x00000000)  returns 0x00 (0000ms, 0732ms total)
T1C8C 001:191 JLINK_WriteReg(R9, 0x20000160)  returns 0x00 (0000ms, 0732ms total)
T1C8C 001:191 JLINK_WriteReg(R10, 0x00000000)  returns 0x00 (0000ms, 0732ms total)
T1C8C 001:191 JLINK_WriteReg(R11, 0x00000000)  returns 0x00 (0000ms, 0732ms total)
T1C8C 001:191 JLINK_WriteReg(R12, 0x00000000)  returns 0x00 (0000ms, 0732ms total)
T1C8C 001:191 JLINK_WriteReg(R13 (SP), 0x20000800)  returns 0x00 (0000ms, 0732ms total)
T1C8C 001:191 JLINK_WriteReg(R14, 0x20000001)  returns 0x00 (0000ms, 0732ms total)
T1C8C 001:191 JLINK_WriteReg(R15 (PC), 0x200000F4)  returns 0x00 (0000ms, 0732ms total)
T1C8C 001:191 JLINK_WriteReg(XPSR, 0x01000000)  returns 0x00 (0000ms, 0732ms total)
T1C8C 001:191 JLINK_WriteReg(MSP, 0x20000800)  returns 0x00 (0000ms, 0732ms total)
T1C8C 001:191 JLINK_WriteReg(PSP, 0x20000800)  returns 0x00 (0000ms, 0732ms total)
T1C8C 001:191 JLINK_WriteReg(CFBP, 0x00000000)  returns 0x00 (0000ms, 0732ms total)
T1C8C 001:191 JLINK_SetBPEx(Addr = 0x20000000, Type = 0xFFFFFFF2)  returns 0x00000008 (0000ms, 0732ms total)
T1C8C 001:191 JLINK_Go() -- CPU_ReadMem(4 bytes @ 0xE0001000) (0003ms, 0735ms total)
T1C8C 001:194 JLINK_IsHalted()  returns FALSE (0001ms, 0736ms total)
T1C8C 001:196 JLINK_IsHalted()  returns FALSE (0001ms, 0736ms total)
T1C8C 001:198 JLINK_IsHalted()  returns FALSE (0001ms, 0736ms total)
T1C8C 001:200 JLINK_IsHalted()  returns FALSE (0000ms, 0735ms total)
T1C8C 001:202 JLINK_IsHalted()  returns FALSE (0000ms, 0735ms total)
T1C8C 001:205 JLINK_IsHalted()  returns FALSE (0001ms, 0736ms total)
T1C8C 001:207 JLINK_IsHalted()  returns FALSE (0000ms, 0735ms total)
T1C8C 001:208 JLINK_IsHalted()  returns FALSE (0001ms, 0736ms total)
T1C8C 001:210 JLINK_IsHalted()  returns FALSE (0000ms, 0735ms total)
T1C8C 001:212 JLINK_IsHalted()  returns FALSE (0000ms, 0735ms total)
T1C8C 001:213 JLINK_IsHalted()  returns FALSE (0001ms, 0736ms total)
T1C8C 001:215 JLINK_IsHalted()  returns FALSE (0001ms, 0736ms total)
T1C8C 001:221 JLINK_IsHalted()  returns FALSE (0000ms, 0735ms total)
T1C8C 001:222 JLINK_IsHalted()  returns FALSE (0001ms, 0736ms total)
T1C8C 001:224 JLINK_IsHalted() -- CPU_ReadMem(2 bytes @ 0x20000000)  returns TRUE (0004ms, 0739ms total)
T1C8C 001:228 JLINK_ReadReg(R15 (PC))  returns 0x20000000 (0000ms, 0735ms total)
T1C8C 001:228 JLINK_ClrBPEx(BPHandle = 0x00000008)  returns 0x00 (0000ms, 0735ms total)
T1C8C 001:228 JLINK_ReadReg(R0)  returns 0x00000000 (0000ms, 0735ms total)
T1C8C 001:232 JLINK_WriteMem(0x20000164, 0x0400 Bytes, ...) - Data: 10 20 FF F7 7A FF 88 E0 DF 48 84 42 08 D1 01 21 ... -- CPU_WriteMem(1024 bytes @ 0x20000164)  returns 0x400 (0013ms, 0748ms total)
T1C8C 001:245 JLINK_WriteReg(R0, 0x08001000)  returns 0x00 (0000ms, 0748ms total)
T1C8C 001:245 JLINK_WriteReg(R1, 0x00000400)  returns 0x00 (0000ms, 0748ms total)
T1C8C 001:245 JLINK_WriteReg(R2, 0x20000164)  returns 0x00 (0000ms, 0748ms total)
T1C8C 001:245 JLINK_WriteReg(R3, 0x00000000)  returns 0x00 (0000ms, 0748ms total)
T1C8C 001:245 JLINK_WriteReg(R4, 0x00000000)  returns 0x00 (0000ms, 0748ms total)
T1C8C 001:245 JLINK_WriteReg(R5, 0x00000000)  returns 0x00 (0000ms, 0748ms total)
T1C8C 001:245 JLINK_WriteReg(R6, 0x00000000)  returns 0x00 (0000ms, 0748ms total)
T1C8C 001:245 JLINK_WriteReg(R7, 0x00000000)  returns 0x00 (0000ms, 0748ms total)
T1C8C 001:245 JLINK_WriteReg(R8, 0x00000000)  returns 0x00 (0000ms, 0748ms total)
T1C8C 001:245 JLINK_WriteReg(R9, 0x20000160)  returns 0x00 (0000ms, 0748ms total)
T1C8C 001:245 JLINK_WriteReg(R10, 0x00000000)  returns 0x00 (0000ms, 0748ms total)
T1C8C 001:245 JLINK_WriteReg(R11, 0x00000000)  returns 0x00 (0000ms, 0748ms total)
T1C8C 001:245 JLINK_WriteReg(R12, 0x00000000)  returns 0x00 (0000ms, 0748ms total)
T1C8C 001:245 JLINK_WriteReg(R13 (SP), 0x20000800)  returns 0x00 (0000ms, 0748ms total)
T1C8C 001:245 JLINK_WriteReg(R14, 0x20000001)  returns 0x00 (0000ms, 0748ms total)
T1C8C 001:245 JLINK_WriteReg(R15 (PC), 0x200000F4)  returns 0x00 (0000ms, 0748ms total)
T1C8C 001:245 JLINK_WriteReg(XPSR, 0x01000000)  returns 0x00 (0000ms, 0748ms total)
T1C8C 001:245 JLINK_WriteReg(MSP, 0x20000800)  returns 0x00 (0000ms, 0748ms total)
T1C8C 001:245 JLINK_WriteReg(PSP, 0x20000800)  returns 0x00 (0001ms, 0749ms total)
T1C8C 001:246 JLINK_WriteReg(CFBP, 0x00000000)  returns 0x00 (0000ms, 0749ms total)
T1C8C 001:246 JLINK_SetBPEx(Addr = 0x20000000, Type = 0xFFFFFFF2)  returns 0x00000009 (0000ms, 0749ms total)
T1C8C 001:246 JLINK_Go() -- CPU_ReadMem(4 bytes @ 0xE0001000) (0002ms, 0751ms total)
T1C8C 001:248 JLINK_IsHalted()  returns FALSE (0001ms, 0752ms total)
T1C8C 001:304 JLINK_IsHalted() -- CPU_ReadMem(2 bytes @ 0x20000000)  returns TRUE (0003ms, 0754ms total)
T1C8C 001:307 JLINK_ReadReg(R15 (PC))  returns 0x20000000 (0000ms, 0751ms total)
T1C8C 001:307 JLINK_ClrBPEx(BPHandle = 0x00000009)  returns 0x00 (0000ms, 0751ms total)
T1C8C 001:307 JLINK_ReadReg(R0)  returns 0x00000000 (0000ms, 0751ms total)
T1C8C 001:308 JLINK_WriteMem(0x20000164, 0x0400 Bytes, ...) - Data: 82 8B 4F F2 FF 33 1A 40 82 83 82 8B 4F F6 FF 73 ... -- CPU_WriteMem(1024 bytes @ 0x20000164)  returns 0x400 (0013ms, 0764ms total)
T1C8C 001:321 JLINK_WriteReg(R0, 0x08001400)  returns 0x00 (0000ms, 0764ms total)
T1C8C 001:321 JLINK_WriteReg(R1, 0x00000400)  returns 0x00 (0000ms, 0764ms total)
T1C8C 001:321 JLINK_WriteReg(R2, 0x20000164)  returns 0x00 (0000ms, 0764ms total)
T1C8C 001:321 JLINK_WriteReg(R3, 0x00000000)  returns 0x00 (0000ms, 0764ms total)
T1C8C 001:321 JLINK_WriteReg(R4, 0x00000000)  returns 0x00 (0000ms, 0764ms total)
T1C8C 001:321 JLINK_WriteReg(R5, 0x00000000)  returns 0x00 (0000ms, 0764ms total)
T1C8C 001:321 JLINK_WriteReg(R6, 0x00000000)  returns 0x00 (0000ms, 0764ms total)
T1C8C 001:321 JLINK_WriteReg(R7, 0x00000000)  returns 0x00 (0000ms, 0764ms total)
T1C8C 001:321 JLINK_WriteReg(R8, 0x00000000)  returns 0x00 (0000ms, 0764ms total)
T1C8C 001:321 JLINK_WriteReg(R9, 0x20000160)  returns 0x00 (0000ms, 0764ms total)
T1C8C 001:321 JLINK_WriteReg(R10, 0x00000000)  returns 0x00 (0000ms, 0764ms total)
T1C8C 001:321 JLINK_WriteReg(R11, 0x00000000)  returns 0x00 (0000ms, 0764ms total)
T1C8C 001:321 JLINK_WriteReg(R12, 0x00000000)  returns 0x00 (0000ms, 0764ms total)
T1C8C 001:321 JLINK_WriteReg(R13 (SP), 0x20000800)  returns 0x00 (0000ms, 0764ms total)
T1C8C 001:321 JLINK_WriteReg(R14, 0x20000001)  returns 0x00 (0001ms, 0765ms total)
T1C8C 001:322 JLINK_WriteReg(R15 (PC), 0x200000F4)  returns 0x00 (0000ms, 0765ms total)
T1C8C 001:322 JLINK_WriteReg(XPSR, 0x01000000)  returns 0x00 (0000ms, 0765ms total)
T1C8C 001:322 JLINK_WriteReg(MSP, 0x20000800)  returns 0x00 (0000ms, 0765ms total)
T1C8C 001:322 JLINK_WriteReg(PSP, 0x20000800)  returns 0x00 (0000ms, 0765ms total)
T1C8C 001:322 JLINK_WriteReg(CFBP, 0x00000000)  returns 0x00 (0000ms, 0765ms total)
T1C8C 001:322 JLINK_SetBPEx(Addr = 0x20000000, Type = 0xFFFFFFF2)  returns 0x0000000A (0000ms, 0765ms total)
T1C8C 001:322 JLINK_Go() -- CPU_ReadMem(4 bytes @ 0xE0001000) (0002ms, 0767ms total)
T1C8C 001:324 JLINK_IsHalted()  returns FALSE (0000ms, 0767ms total)
T1C8C 001:333 JLINK_IsHalted()  returns FALSE (0001ms, 0768ms total)
T1C8C 001:335 JLINK_IsHalted()  returns FALSE (0000ms, 0767ms total)
T1C8C 001:337 JLINK_IsHalted()  returns FALSE (0000ms, 0767ms total)
T1C8C 001:340 JLINK_IsHalted()  returns FALSE (0000ms, 0767ms total)
T1C8C 001:382 JLINK_IsHalted() -- CPU_ReadMem(2 bytes @ 0x20000000)  returns TRUE (0004ms, 0771ms total)
T1C8C 001:386 JLINK_ReadReg(R15 (PC))  returns 0x20000000 (0000ms, 0767ms total)
T1C8C 001:386 JLINK_ClrBPEx(BPHandle = 0x0000000A)  returns 0x00 (0000ms, 0767ms total)
T1C8C 001:386 JLINK_ReadReg(R0)  returns 0x00000000 (0000ms, 0767ms total)
T1C8C 001:386 JLINK_WriteMem(0x20000164, 0x0400 Bytes, ...) - Data: C2 F3 0E 02 A0 F8 44 20 70 47 1A B1 83 89 0B 43 ... -- CPU_WriteMem(1024 bytes @ 0x20000164)  returns 0x400 (0013ms, 0780ms total)
T1C8C 001:399 JLINK_WriteReg(R0, 0x08001800)  returns 0x00 (0000ms, 0780ms total)
T1C8C 001:399 JLINK_WriteReg(R1, 0x00000400)  returns 0x00 (0000ms, 0780ms total)
T1C8C 001:399 JLINK_WriteReg(R2, 0x20000164)  returns 0x00 (0000ms, 0780ms total)
T1C8C 001:399 JLINK_WriteReg(R3, 0x00000000)  returns 0x00 (0000ms, 0780ms total)
T1C8C 001:399 JLINK_WriteReg(R4, 0x00000000)  returns 0x00 (0000ms, 0780ms total)
T1C8C 001:399 JLINK_WriteReg(R5, 0x00000000)  returns 0x00 (0000ms, 0780ms total)
T1C8C 001:399 JLINK_WriteReg(R6, 0x00000000)  returns 0x00 (0000ms, 0780ms total)
T1C8C 001:399 JLINK_WriteReg(R7, 0x00000000)  returns 0x00 (0000ms, 0780ms total)
T1C8C 001:399 JLINK_WriteReg(R8, 0x00000000)  returns 0x00 (0000ms, 0780ms total)
T1C8C 001:399 JLINK_WriteReg(R9, 0x20000160)  returns 0x00 (0000ms, 0780ms total)
T1C8C 001:399 JLINK_WriteReg(R10, 0x00000000)  returns 0x00 (0000ms, 0780ms total)
T1C8C 001:399 JLINK_WriteReg(R11, 0x00000000)  returns 0x00 (0000ms, 0780ms total)
T1C8C 001:399 JLINK_WriteReg(R12, 0x00000000)  returns 0x00 (0000ms, 0780ms total)
T1C8C 001:399 JLINK_WriteReg(R13 (SP), 0x20000800)  returns 0x00 (0000ms, 0780ms total)
T1C8C 001:399 JLINK_WriteReg(R14, 0x20000001)  returns 0x00 (0000ms, 0780ms total)
T1C8C 001:399 JLINK_WriteReg(R15 (PC), 0x200000F4)  returns 0x00 (0000ms, 0780ms total)
T1C8C 001:399 JLINK_WriteReg(XPSR, 0x01000000)  returns 0x00 (0000ms, 0780ms total)
T1C8C 001:399 JLINK_WriteReg(MSP, 0x20000800)  returns 0x00 (0000ms, 0780ms total)
T1C8C 001:399 JLINK_WriteReg(PSP, 0x20000800)  returns 0x00 (0000ms, 0780ms total)
T1C8C 001:399 JLINK_WriteReg(CFBP, 0x00000000)  returns 0x00 (0000ms, 0780ms total)
T1C8C 001:399 JLINK_SetBPEx(Addr = 0x20000000, Type = 0xFFFFFFF2)  returns 0x0000000B (0000ms, 0780ms total)
T1C8C 001:399 JLINK_Go() -- CPU_ReadMem(4 bytes @ 0xE0001000) (0002ms, 0782ms total)
T1C8C 001:401 JLINK_IsHalted()  returns FALSE (0001ms, 0783ms total)
T1C8C 001:407 JLINK_IsHalted()  returns FALSE (0000ms, 0782ms total)
T1C8C 001:409 JLINK_IsHalted()  returns FALSE (0001ms, 0783ms total)
T1C8C 001:416 JLINK_IsHalted()  returns FALSE (0001ms, 0783ms total)
T1C8C 001:422 JLINK_IsHalted()  returns FALSE (0000ms, 0782ms total)
T1C8C 001:423 JLINK_IsHalted()  returns FALSE (0000ms, 0782ms total)
T1C8C 001:425 JLINK_IsHalted()  returns FALSE (0000ms, 0782ms total)
T1C8C 001:429 JLINK_IsHalted()  returns FALSE (0000ms, 0782ms total)
T1C8C 001:431 JLINK_IsHalted()  returns FALSE (0000ms, 0782ms total)
T1C8C 001:432 JLINK_IsHalted() -- CPU_ReadMem(2 bytes @ 0x20000000)  returns TRUE (0004ms, 0786ms total)
T1C8C 001:436 JLINK_ReadReg(R15 (PC))  returns 0x20000000 (0000ms, 0782ms total)
T1C8C 001:436 JLINK_ClrBPEx(BPHandle = 0x0000000B)  returns 0x00 (0000ms, 0782ms total)
T1C8C 001:436 JLINK_ReadReg(R0)  returns 0x00000000 (0000ms, 0782ms total)
T1C8C 001:436 JLINK_WriteMem(0x20000164, 0x0400 Bytes, ...) - Data: 04 24 8C 40 A3 B2 04 8C 9C 43 04 84 04 8C 02 FA ... -- CPU_WriteMem(1024 bytes @ 0x20000164)  returns 0x400 (0013ms, 0795ms total)
T1C8C 001:449 JLINK_WriteReg(R0, 0x08001C00)  returns 0x00 (0000ms, 0795ms total)
T1C8C 001:449 JLINK_WriteReg(R1, 0x00000400)  returns 0x00 (0000ms, 0795ms total)
T1C8C 001:449 JLINK_WriteReg(R2, 0x20000164)  returns 0x00 (0000ms, 0795ms total)
T1C8C 001:449 JLINK_WriteReg(R3, 0x00000000)  returns 0x00 (0000ms, 0795ms total)
T1C8C 001:449 JLINK_WriteReg(R4, 0x00000000)  returns 0x00 (0000ms, 0795ms total)
T1C8C 001:449 JLINK_WriteReg(R5, 0x00000000)  returns 0x00 (0000ms, 0795ms total)
T1C8C 001:449 JLINK_WriteReg(R6, 0x00000000)  returns 0x00 (0000ms, 0795ms total)
T1C8C 001:449 JLINK_WriteReg(R7, 0x00000000)  returns 0x00 (0000ms, 0795ms total)
T1C8C 001:449 JLINK_WriteReg(R8, 0x00000000)  returns 0x00 (0000ms, 0795ms total)
T1C8C 001:449 JLINK_WriteReg(R9, 0x20000160)  returns 0x00 (0000ms, 0795ms total)
T1C8C 001:449 JLINK_WriteReg(R10, 0x00000000)  returns 0x00 (0000ms, 0795ms total)
T1C8C 001:449 JLINK_WriteReg(R11, 0x00000000)  returns 0x00 (0000ms, 0795ms total)
T1C8C 001:449 JLINK_WriteReg(R12, 0x00000000)  returns 0x00 (0000ms, 0795ms total)
T1C8C 001:449 JLINK_WriteReg(R13 (SP), 0x20000800)  returns 0x00 (0000ms, 0795ms total)
T1C8C 001:449 JLINK_WriteReg(R14, 0x20000001)  returns 0x00 (0000ms, 0795ms total)
T1C8C 001:449 JLINK_WriteReg(R15 (PC), 0x200000F4)  returns 0x00 (0000ms, 0795ms total)
T1C8C 001:449 JLINK_WriteReg(XPSR, 0x01000000)  returns 0x00 (0000ms, 0795ms total)
T1C8C 001:449 JLINK_WriteReg(MSP, 0x20000800)  returns 0x00 (0000ms, 0795ms total)
T1C8C 001:449 JLINK_WriteReg(PSP, 0x20000800)  returns 0x00 (0000ms, 0795ms total)
T1C8C 001:449 JLINK_WriteReg(CFBP, 0x00000000)  returns 0x00 (0000ms, 0795ms total)
T1C8C 001:449 JLINK_SetBPEx(Addr = 0x20000000, Type = 0xFFFFFFF2)  returns 0x0000000C (0000ms, 0795ms total)
T1C8C 001:449 JLINK_Go() -- CPU_ReadMem(4 bytes @ 0xE0001000) (0003ms, 0798ms total)
T1C8C 001:452 JLINK_IsHalted()  returns FALSE (0000ms, 0798ms total)
T1C8C 001:501 JLINK_IsHalted() -- CPU_ReadMem(2 bytes @ 0x20000000)  returns TRUE (0003ms, 0801ms total)
T1C8C 001:504 JLINK_ReadReg(R15 (PC))  returns 0x20000000 (0000ms, 0798ms total)
T1C8C 001:504 JLINK_ClrBPEx(BPHandle = 0x0000000C)  returns 0x00 (0000ms, 0798ms total)
T1C8C 001:504 JLINK_ReadReg(R0)  returns 0x00000000 (0000ms, 0798ms total)
T1C8C 001:505 JLINK_WriteMem(0x20000164, 0x0400 Bytes, ...) - Data: FF 73 1A 40 02 82 70 47 C1 F3 08 02 82 80 70 47 ... -- CPU_WriteMem(1024 bytes @ 0x20000164)  returns 0x400 (0012ms, 0810ms total)
T1C8C 001:517 JLINK_WriteReg(R0, 0x08002000)  returns 0x00 (0000ms, 0810ms total)
T1C8C 001:517 JLINK_WriteReg(R1, 0x00000400)  returns 0x00 (0000ms, 0810ms total)
T1C8C 001:517 JLINK_WriteReg(R2, 0x20000164)  returns 0x00 (0000ms, 0810ms total)
T1C8C 001:517 JLINK_WriteReg(R3, 0x00000000)  returns 0x00 (0000ms, 0810ms total)
T1C8C 001:517 JLINK_WriteReg(R4, 0x00000000)  returns 0x00 (0000ms, 0810ms total)
T1C8C 001:517 JLINK_WriteReg(R5, 0x00000000)  returns 0x00 (0000ms, 0810ms total)
T1C8C 001:517 JLINK_WriteReg(R6, 0x00000000)  returns 0x00 (0000ms, 0810ms total)
T1C8C 001:517 JLINK_WriteReg(R7, 0x00000000)  returns 0x00 (0000ms, 0810ms total)
T1C8C 001:517 JLINK_WriteReg(R8, 0x00000000)  returns 0x00 (0000ms, 0810ms total)
T1C8C 001:518 JLINK_WriteReg(R9, 0x20000160)  returns 0x00 (0000ms, 0811ms total)
T1C8C 001:518 JLINK_WriteReg(R10, 0x00000000)  returns 0x00 (0000ms, 0811ms total)
T1C8C 001:518 JLINK_WriteReg(R11, 0x00000000)  returns 0x00 (0000ms, 0811ms total)
T1C8C 001:518 JLINK_WriteReg(R12, 0x00000000)  returns 0x00 (0000ms, 0811ms total)
T1C8C 001:518 JLINK_WriteReg(R13 (SP), 0x20000800)  returns 0x00 (0000ms, 0811ms total)
T1C8C 001:518 JLINK_WriteReg(R14, 0x20000001)  returns 0x00 (0000ms, 0811ms total)
T1C8C 001:518 JLINK_WriteReg(R15 (PC), 0x200000F4)  returns 0x00 (0000ms, 0811ms total)
T1C8C 001:518 JLINK_WriteReg(XPSR, 0x01000000)  returns 0x00 (0000ms, 0811ms total)
T1C8C 001:518 JLINK_WriteReg(MSP, 0x20000800)  returns 0x00 (0000ms, 0811ms total)
T1C8C 001:518 JLINK_WriteReg(PSP, 0x20000800)  returns 0x00 (0000ms, 0811ms total)
T1C8C 001:518 JLINK_WriteReg(CFBP, 0x00000000)  returns 0x00 (0000ms, 0811ms total)
T1C8C 001:518 JLINK_SetBPEx(Addr = 0x20000000, Type = 0xFFFFFFF2)  returns 0x0000000D (0000ms, 0811ms total)
T1C8C 001:518 JLINK_Go() -- CPU_ReadMem(4 bytes @ 0xE0001000) (0002ms, 0813ms total)
T1C8C 001:520 JLINK_IsHalted()  returns FALSE (0000ms, 0813ms total)
T1C8C 001:522 JLINK_IsHalted()  returns FALSE (0000ms, 0813ms total)
T1C8C 001:523 JLINK_IsHalted()  returns FALSE (0000ms, 0813ms total)
T1C8C 001:525 JLINK_IsHalted()  returns FALSE (0000ms, 0813ms total)
T1C8C 001:526 JLINK_IsHalted()  returns FALSE (0001ms, 0814ms total)
T1C8C 001:528 JLINK_IsHalted()  returns FALSE (0001ms, 0814ms total)
T1C8C 001:534 JLINK_IsHalted()  returns FALSE (0000ms, 0813ms total)
T1C8C 001:536 JLINK_IsHalted()  returns FALSE (0000ms, 0813ms total)
T1C8C 001:538 JLINK_IsHalted()  returns FALSE (0000ms, 0813ms total)
T1C8C 001:539 JLINK_IsHalted()  returns FALSE (0000ms, 0813ms total)
T1C8C 001:541 JLINK_IsHalted()  returns FALSE (0000ms, 0813ms total)
T1C8C 001:543 JLINK_IsHalted()  returns FALSE (0000ms, 0813ms total)
T1C8C 001:547 JLINK_IsHalted()  returns FALSE (0000ms, 0813ms total)
T1C8C 001:548 JLINK_IsHalted()  returns FALSE (0000ms, 0813ms total)
T1C8C 001:551 JLINK_IsHalted() -- CPU_ReadMem(2 bytes @ 0x20000000)  returns TRUE (0003ms, 0816ms total)
T1C8C 001:554 JLINK_ReadReg(R15 (PC))  returns 0x20000000 (0000ms, 0813ms total)
T1C8C 001:554 JLINK_ClrBPEx(BPHandle = 0x0000000D)  returns 0x00 (0000ms, 0813ms total)
T1C8C 001:554 JLINK_ReadReg(R0)  returns 0x00000000 (0000ms, 0813ms total)
T1C8C 001:555 JLINK_WriteMem(0x20000164, 0x0400 Bytes, ...) - Data: 00 20 81 49 08 70 85 A0 01 F0 6A FD 87 48 88 A1 ... -- CPU_WriteMem(1024 bytes @ 0x20000164)  returns 0x400 (0012ms, 0825ms total)
T1C8C 001:567 JLINK_WriteReg(R0, 0x08002400)  returns 0x00 (0000ms, 0825ms total)
T1C8C 001:567 JLINK_WriteReg(R1, 0x00000400)  returns 0x00 (0000ms, 0825ms total)
T1C8C 001:567 JLINK_WriteReg(R2, 0x20000164)  returns 0x00 (0000ms, 0825ms total)
T1C8C 001:567 JLINK_WriteReg(R3, 0x00000000)  returns 0x00 (0000ms, 0825ms total)
T1C8C 001:567 JLINK_WriteReg(R4, 0x00000000)  returns 0x00 (0000ms, 0825ms total)
T1C8C 001:567 JLINK_WriteReg(R5, 0x00000000)  returns 0x00 (0000ms, 0825ms total)
T1C8C 001:567 JLINK_WriteReg(R6, 0x00000000)  returns 0x00 (0000ms, 0825ms total)
T1C8C 001:567 JLINK_WriteReg(R7, 0x00000000)  returns 0x00 (0000ms, 0825ms total)
T1C8C 001:567 JLINK_WriteReg(R8, 0x00000000)  returns 0x00 (0000ms, 0825ms total)
T1C8C 001:567 JLINK_WriteReg(R9, 0x20000160)  returns 0x00 (0000ms, 0825ms total)
T1C8C 001:567 JLINK_WriteReg(R10, 0x00000000)  returns 0x00 (0000ms, 0825ms total)
T1C8C 001:567 JLINK_WriteReg(R11, 0x00000000)  returns 0x00 (0000ms, 0825ms total)
T1C8C 001:567 JLINK_WriteReg(R12, 0x00000000)  returns 0x00 (0000ms, 0825ms total)
T1C8C 001:567 JLINK_WriteReg(R13 (SP), 0x20000800)  returns 0x00 (0000ms, 0825ms total)
T1C8C 001:567 JLINK_WriteReg(R14, 0x20000001)  returns 0x00 (0000ms, 0825ms total)
T1C8C 001:567 JLINK_WriteReg(R15 (PC), 0x200000F4)  returns 0x00 (0000ms, 0825ms total)
T1C8C 001:567 JLINK_WriteReg(XPSR, 0x01000000)  returns 0x00 (0000ms, 0825ms total)
T1C8C 001:567 JLINK_WriteReg(MSP, 0x20000800)  returns 0x00 (0000ms, 0825ms total)
T1C8C 001:567 JLINK_WriteReg(PSP, 0x20000800)  returns 0x00 (0000ms, 0825ms total)
T1C8C 001:567 JLINK_WriteReg(CFBP, 0x00000000)  returns 0x00 (0000ms, 0825ms total)
T1C8C 001:567 JLINK_SetBPEx(Addr = 0x20000000, Type = 0xFFFFFFF2)  returns 0x0000000E (0000ms, 0825ms total)
T1C8C 001:567 JLINK_Go() -- CPU_ReadMem(4 bytes @ 0xE0001000) (0003ms, 0828ms total)
T1C8C 001:570 JLINK_IsHalted()  returns FALSE (0000ms, 0828ms total)
T1C8C 001:588 JLINK_IsHalted()  returns FALSE (0001ms, 0829ms total)
T1C8C 001:590 JLINK_IsHalted()  returns FALSE (0001ms, 0829ms total)
T1C8C 001:596 JLINK_IsHalted()  returns FALSE (0001ms, 0829ms total)
T1C8C 001:598 JLINK_IsHalted()  returns FALSE (0000ms, 0828ms total)
T1C8C 001:600 JLINK_IsHalted() -- CPU_ReadMem(2 bytes @ 0x20000000)  returns TRUE (0004ms, 0832ms total)
T1C8C 001:604 JLINK_ReadReg(R15 (PC))  returns 0x20000000 (0000ms, 0828ms total)
T1C8C 001:604 JLINK_ClrBPEx(BPHandle = 0x0000000E)  returns 0x00 (0000ms, 0828ms total)
T1C8C 001:604 JLINK_ReadReg(R0)  returns 0x00000000 (0000ms, 0828ms total)
T1C8C 001:605 JLINK_WriteMem(0x20000164, 0x0400 Bytes, ...) - Data: 83 46 20 20 02 49 48 61 00 E0 00 BF 00 BF 54 E5 ... -- CPU_WriteMem(1024 bytes @ 0x20000164)  returns 0x400 (0012ms, 0840ms total)
T1C8C 001:617 JLINK_WriteReg(R0, 0x08002800)  returns 0x00 (0000ms, 0840ms total)
T1C8C 001:617 JLINK_WriteReg(R1, 0x00000400)  returns 0x00 (0000ms, 0840ms total)
T1C8C 001:617 JLINK_WriteReg(R2, 0x20000164)  returns 0x00 (0000ms, 0840ms total)
T1C8C 001:617 JLINK_WriteReg(R3, 0x00000000)  returns 0x00 (0000ms, 0840ms total)
T1C8C 001:617 JLINK_WriteReg(R4, 0x00000000)  returns 0x00 (0000ms, 0840ms total)
T1C8C 001:617 JLINK_WriteReg(R5, 0x00000000)  returns 0x00 (0000ms, 0840ms total)
T1C8C 001:617 JLINK_WriteReg(R6, 0x00000000)  returns 0x00 (0000ms, 0840ms total)
T1C8C 001:617 JLINK_WriteReg(R7, 0x00000000)  returns 0x00 (0000ms, 0840ms total)
T1C8C 001:617 JLINK_WriteReg(R8, 0x00000000)  returns 0x00 (0000ms, 0840ms total)
T1C8C 001:617 JLINK_WriteReg(R9, 0x20000160)  returns 0x00 (0000ms, 0840ms total)
T1C8C 001:617 JLINK_WriteReg(R10, 0x00000000)  returns 0x00 (0000ms, 0840ms total)
T1C8C 001:617 JLINK_WriteReg(R11, 0x00000000)  returns 0x00 (0000ms, 0840ms total)
T1C8C 001:617 JLINK_WriteReg(R12, 0x00000000)  returns 0x00 (0000ms, 0840ms total)
T1C8C 001:617 JLINK_WriteReg(R13 (SP), 0x20000800)  returns 0x00 (0000ms, 0840ms total)
T1C8C 001:617 JLINK_WriteReg(R14, 0x20000001)  returns 0x00 (0000ms, 0840ms total)
T1C8C 001:617 JLINK_WriteReg(R15 (PC), 0x200000F4)  returns 0x00 (0000ms, 0840ms total)
T1C8C 001:617 JLINK_WriteReg(XPSR, 0x01000000)  returns 0x00 (0000ms, 0840ms total)
T1C8C 001:617 JLINK_WriteReg(MSP, 0x20000800)  returns 0x00 (0000ms, 0840ms total)
T1C8C 001:617 JLINK_WriteReg(PSP, 0x20000800)  returns 0x00 (0001ms, 0841ms total)
T1C8C 001:618 JLINK_WriteReg(CFBP, 0x00000000)  returns 0x00 (0000ms, 0841ms total)
